#Frequency (Hz), CH1_S21_S1re (), CH1_S21_S1im (), CH1_S21_S1dB (dB), CH1_S21_S1Ph (rad)
5.8000000000e+09, -6.5002840000e-06, -1.8940630000e-05, -9.3968543745e+01, -1.9013938198e+00
5.8002000000e+09, 2.0890240000e-06, -2.4790670000e-05, -9.2083505089e+01, -1.4867283954e+00
5.8004000000e+09, -1.9540730000e-05, -7.9869120000e-05, -8.1699944304e+01, -1.8107422496e+00
5.8006000000e+09, -4.0616640000e-06, -5.5487130000e-06, -1.0325273572e+02, -2.2026782723e+00
5.8008000000e+09, -2.5795090000e-05, -3.9189840000e-05, -8.6573345321e+01, -2.1529204703e+00
5.8010000000e+09, 9.4803000000e-06, -4.3216120000e-05, -8.7082962068e+01, -1.3548474638e+00
5.8012000000e+09, -3.0732960000e-05, -3.9582200000e-05, -8.6001073892e+01, -2.2310015807e+00
5.8014000000e+09, -2.6945960000e-05, -2.5085810000e-05, -8.8679380864e+01, -2.3919295446e+00
5.8016000000e+09, -2.8762130000e-05, -3.9792280000e-05, -8.6178594138e+01, -2.1966654360e+00
5.8018000000e+09, -5.1519820000e-05, -6.4892100000e-05, -8.1633419671e+01, -2.2418254061e+00
5.8020000000e+09, -3.0474970000e-05, -5.8974190000e-05, -8.3558885956e+01, -2.0477547343e+00
5.8022000000e+09, -2.5054970000e-05, -4.0964170000e-05, -8.6371755879e+01, -2.1197244116e+00
5.8024000000e+09, -6.7532920000e-06, -1.6869190000e-05, -9.4812538088e+01, -1.9515896663e+00
5.8026000000e+09, -3.5425740000e-05, 3.3652810000e-06, -8.8974605909e+01, -3.2363038032e+00
5.8028000000e+09, -3.7971240000e-05, -1.3821230000e-05, -8.7870559793e+01, -2.7925075277e+00
5.8030000000e+09, -2.2275520000e-05, -1.7737930000e-06, -9.3015991788e+01, -3.0621306227e+00
5.8032000000e+09, -7.2441500000e-05, -5.6628090000e-05, -8.0729114808e+01, -2.4781054005e+00
5.8034000000e+09, -4.9546140000e-05, -2.6099830000e-06, -8.6087768711e+01, -3.0889634716e+00
5.8036000000e+09, -1.2973410000e-06, 5.6199640000e-06, -1.0477985200e+02, -4.4855181260e+00
5.8038000000e+09, -5.2957950000e-05, -2.5204270000e-05, -8.4634668464e+01, -2.6973859042e+00
5.8040000000e+09, -1.8649170000e-05, -2.1465290000e-05, -9.0922930023e+01, -2.2861073603e+00
5.8042000000e+09, -5.8073620000e-05, -2.2300210000e-05, -8.4123064626e+01, -2.7749559144e+00
5.8044000000e+09, -6.4909550000e-05, 7.6061730000e-06, -8.3694598994e+01, -3.2582417838e+00
5.8046000000e+09, 3.8971850000e-06, 2.6848870000e-05, -9.1330927590e+01, -4.8565349190e+00
5.8048000000e+09, -8.3190410000e-06, 4.6169130000e-06, -1.0043244282e+02, -3.6482523076e+00
5.8050000000e+09, 1.0615320000e-05, 1.8444940000e-05, -9.3439968831e+01, -5.2346094102e+00
5.8052000000e+09, -3.0721990000e-05, 2.4771070000e-06, -9.0222870334e+01, -3.2220483734e+00
5.8054000000e+09, -4.4026950000e-05, 3.0861050000e-05, -8.5389854494e+01, -3.7529613911e+00
5.8056000000e+09, -4.7965930000e-05, -2.2908100000e-05, -8.5489029229e+01, -2.6960323577e+00
5.8058000000e+09, -6.7677150000e-05, 1.3263200000e-05, -8.3227481911e+01, -3.3351174690e+00
5.8060000000e+09, -2.4774160000e-05, 4.5896100000e-05, -8.5653974077e+01, -4.2174199369e+00
5.8062000000e+09, 7.8579050000e-06, 5.2433650000e-05, -8.5511338515e+01, -4.8611457031e+00
5.8064000000e+09, -3.0474660000e-05, 2.9757140000e-05, -8.7413166847e+01, -3.9150787363e+00
5.8066000000e+09, -3.6531660000e-06, 2.1198290000e-05, -9.3346881854e+01, -4.5417321808e+00
5.8068000000e+09, 2.5153520000e-06, 1.7122180000e-06, -1.1033450637e+02, -5.6855252784e+00
5.8070000000e+09, -3.9356870000e-05, 1.1329300000e-05, -8.7753850443e+01, -3.4218756966e+00
5.8072000000e+09, -2.0283770000e-05, 3.6663340000e-05, -8.7555665550e+01, -4.2070586466e+00
5.8074000000e+09, 4.9724790000e-05, 1.1482240000e-05, -8.5842928843e+01, -6.0562472987e+00
5.8076000000e+09, 1.7227480000e-05, 2.8462450000e-05, -8.9558927397e+01, -5.2566748043e+00
5.8078000000e+09, 2.7067090000e-06, 3.9467440000e-05, -8.8054842446e+01, -4.7808625734e+00
5.8080000000e+09, 2.5416490000e-05, 6.0980530000e-05, -8.3600532628e+01, -5.1072909811e+00
5.8082000000e+09, -2.2211700000e-05, 3.9336920000e-05, -8.6902095794e+01, -4.1983657020e+00
5.8084000000e+09, 3.7380470000e-05, 2.7142180000e-05, -8.6708060993e+01, -5.6551526092e+00
5.8086000000e+09, 1.1978280000e-05, 4.9563670000e-05, -8.5850205426e+01, -4.9495167523e+00
5.8088000000e+09, 2.8766070000e-05, 2.3038290000e-06, -9.0794621979e+01, -6.2032674677e+00
5.8090000000e+09, 2.0195780000e-05, 1.1260420000e-05, -9.2719169544e+01, -5.7745541077e+00
5.8092000000e+09, 3.4246090000e-05, 9.1065630000e-05, -8.0238452613e+01, -5.0720881528e+00
5.8094000000e+09, 9.1166580000e-06, 7.3987930000e-05, -8.2551340294e+01, -4.8349891835e+00
5.8096000000e+09, 1.4404910000e-05, 4.3172250000e-05, -8.6837476431e+01, -5.0344346953e+00
5.8098000000e+09, 2.7900590000e-05, 3.2768730000e-05, -8.7323044791e+01, -5.4177181359e+00
5.8100000000e+09, 2.5454530000e-05, 2.4077220000e-05, -8.9109269812e+01, -5.5255865892e+00
5.8102000000e+09, 6.3096390000e-06, 3.1755530000e-05, -8.9795453914e+01, -4.9085286295e+00
5.8104000000e+09, 6.6078650000e-05, 1.3266820000e-05, -8.3427149596e+01, -6.0850464257e+00
5.8106000000e+09, 6.9917540000e-05, -2.0306860000e-05, -8.2756560447e+01, -6.5658486757e+00
5.8108000000e+09, 6.4270060000e-05, 4.7995340000e-06, -8.3815673683e+01, -6.2086460612e+00
5.8110000000e+09, 7.8761410000e-05, -2.3637160000e-07, -8.2073691238e+01, -6.2861864075e+00
5.8112000000e+09, 4.7582290000e-05, -1.4442010000e-05, -8.6068380601e+01, -6.5778651155e+00
5.8114000000e+09, 4.4191180000e-05, -2.3053650000e-05, -8.6047905120e+01, -6.7640260227e+00
5.8116000000e+09, 5.4284320000e-05, 4.9527860000e-05, -8.2676226219e+01, -5.5435730602e+00
5.8118000000e+09, 6.5126060000e-05, -1.8546980000e-05, -8.3386233266e+01, -6.5606263857e+00
5.8120000000e+09, 6.3216180000e-05, -3.9960110000e-05, -8.2523477415e+01, -6.8468870970e+00
5.8122000000e+09, 2.8523940000e-05, -3.2371730000e-05, -8.7301266811e+01, -7.1316861740e+00
5.8124000000e+09, 5.7212660000e-05, -1.8495740000e-06, -8.4845620745e+01, -6.3155021069e+00
5.8126000000e+09, 4.5764830000e-05, -1.1591400000e-05, -8.6519327554e+01, -6.5312503606e+00
5.8128000000e+09, 3.5016670000e-05, 2.2468560000e-07, -8.9114324329e+01, -6.2767688628e+00
5.8130000000e+09, 4.3224510000e-05, -6.6994140000e-05, -8.1967769571e+01, -7.2809893089e+00
5.8132000000e+09, 6.3756620000e-05, -2.2630330000e-05, -8.3394154411e+01, -6.6242619560e+00
5.8134000000e+09, 4.1731660000e-05, -5.6355510000e-07, -8.7589894863e+01, -6.2966887443e+00
5.8136000000e+09, 3.3597730000e-05, -4.2271740000e-06, -8.9405591025e+01, -6.4083448977e+00
5.8138000000e+09, 2.0475220000e-05, -5.0895860000e-05, -8.5214878741e+01, -7.4714971918e+00
5.8140000000e+09, 6.4517890000e-05, -7.2451340000e-05, -8.0263293959e+01, -7.1264402306e+00
5.8142000000e+09, 2.4170180000e-05, -5.8142610000e-06, -9.2090092535e+01, -6.5192551259e+00
5.8144000000e+09, 1.1825930000e-05, -4.3774250000e-05, -8.6869689509e+01, -7.5901232612e+00
5.8146000000e+09, -1.9809260000e-05, -2.6157240000e-05, -8.9679424030e+01, -8.5021476803e+00
5.8148000000e+09, 3.3808730000e-05, 8.2676990000e-07, -8.9416826491e+01, -6.2587358483e+00
5.8150000000e+09, 4.5261400000e-05, -5.0168510000e-05, -8.3405141523e+01, -7.1199593111e+00
5.8152000000e+09, 2.5493240000e-05, -7.6413870000e-05, -8.1878232422e+01, -7.5319725755e+00
5.8154000000e+09, -2.0777500000e-06, -3.8830400000e-05, -8.8204146014e+01, -7.9074389879e+00
5.8156000000e+09, 3.5292970000e-05, -2.8780400000e-05, -8.6832111088e+01, -6.9672889623e+00
5.8158000000e+09, -1.6787980000e-05, -6.5671160000e-05, -8.3377581968e+01, -8.1042586556e+00
5.8160000000e+09, -3.6449000000e-05, -4.9966870000e-05, -8.4173438435e+01, -8.4842092087e+00
5.8162000000e+09, -1.7754930000e-05, -3.3423680000e-05, -8.8439417746e+01, -8.3422829175e+00
5.8164000000e+09, -2.5341020000e-05, -2.2531790000e-05, -8.9393592428e+01, -8.6979936983e+00
5.8166000000e+09, -2.8895330000e-06, -5.2149180000e-05, -8.5641737233e+01, -7.9093340159e+00
5.8168000000e+09, 8.4087110000e-06, -5.6335230000e-05, -8.4888703513e+01, -7.7058134918e+00
5.8170000000e+09, -4.8592350000e-05, -5.2774620000e-05, -8.2884984030e+01, -8.5981444789e+00
5.8172000000e+09, -6.7165510000e-05, -2.7700000000e-05, -8.2774898251e+01, -9.0336158356e+00
5.8174000000e+09, -4.7602030000e-06, 7.5169840000e-06, -1.0101469082e+02, -1.0431057452e+01
5.8176000000e+09, -1.7028120000e-05, 5.3539260000e-06, -9.4967250662e+01, -9.7294080877e+00
5.8178000000e+09, -3.4851490000e-05, -5.7611150000e-05, -8.3435500029e+01, -8.3980281253e+00
5.8180000000e+09, -1.7681780000e-05, -3.0451960000e-05, -8.9065897986e+01, -8.3800479737e+00
5.8182000000e+09, -1.0397820000e-04, -3.2316950000e-05, -7.9260672552e+01, -9.1234379873e+00
5.8184000000e+09, -4.7251800000e-05, -2.4765800000e-05, -8.5457532852e+01, -8.9420179692e+00
5.8186000000e+09, -8.5826490000e-05, 1.3626660000e-05, -8.1219453654e+01, -9.5822335611e+00
5.8188000000e+09, -4.7421340000e-05, -2.8729360000e-05, -8.5122735873e+01, -8.8800813374e+00
5.8190000000e+09, -3.8041540000e-05, -2.4305720000e-05, -8.6908114215e+01, -8.8562272272e+00
5.8192000000e+09, -5.3885850000e-05, 1.8652560000e-05, -8.4879025078e+01, -9.7580183802e+00
5.8194000000e+09, -2.6997640000e-06, -3.5879580000e-06, -1.0695462765e+02, -8.4990497900e+00
5.8196000000e+09, -4.0497280000e-05, -1.5637940000e-06, -8.7845011953e+01, -9.3861823456e+00
5.8198000000e+09, -5.8593690000e-05, -6.5979400000e-06, -8.4588261220e+01, -9.3126453534e+00
5.8200000000e+09, -2.8935350000e-05, 1.6892780000e-05, -8.9497670331e+01, -9.9532088418e+00
5.8202000000e+09, -3.8864480000e-05, 4.0962750000e-06, -8.8160963285e+01, -9.5297891918e+00
5.8204000000e+09, -5.9890750000e-05, 2.6906400000e-05, -8.3654364542e+01, -9.8470146877e+00
5.8206000000e+09, -5.0599220000e-05, 3.5356530000e-05, -8.4190333890e+01, -1.0034668822e+01
5.8208000000e+09, -5.0241230000e-05, 2.1272560000e-05, -8.5262644947e+01, -9.8252997568e+00
5.8210000000e+09, -2.6413450000e-05, 1.6565420000e-05, -9.0122964371e+01, -9.9849279590e+00
5.8212000000e+09, -9.2120380000e-05, 3.1454590000e-05, -8.0233953137e+01, -9.7538164802e+00
5.8214000000e+09, -4.0706010000e-05, 2.0935450000e-05, -8.6787595250e+01, -9.8998067959e+00
5.8216000000e+09, -5.9119620000e-05, 2.1306790000e-05, -8.4035009045e+01, -9.7706887858e+00
5.8218000000e+09, -3.3125220000e-05, 1.8714850000e-05, -8.8393736837e+01, -9.9390439227e+00
5.8220000000e+09, -1.0364780000e-05, 4.7461790000e-05, -8.6270787639e+01, -1.0780568224e+01
5.8222000000e+09, -1.3597990000e-05, 5.0048550000e-05, -8.5702860350e+01, -1.0730282382e+01
5.8224000000e+09, 1.4187730000e-05, 4.8307180000e-05, -8.5960433966e+01, -1.1281239599e+01
5.8226000000e+09, -2.8696070000e-05, 2.5317400000e-05, -8.8343298478e+01, -1.0147705158e+01
5.8228000000e+09, 1.4896490000e-06, 5.0955500000e-05, -8.5852468560e+01, -1.1024800276e+01
5.8230000000e+09, -5.6291140000e-06, 4.1843200000e-05, -8.7489606402e+01, -1.0861848389e+01
5.8232000000e+09, 1.9543130000e-05, 1.0472890000e-04, -7.9450012142e+01, -1.1180059280e+01
5.8234000000e+09, -2.7927660000e-05, 4.6304080000e-05, -8.5340193615e+01, -1.0452852057e+01
5.8236000000e+09, -1.2686200000e-05, 7.4042480000e-05, -8.2484723632e+01, -1.0825885187e+01
5.8238000000e+09, -8.8292890000e-06, 8.9261780000e-05, -8.0944403908e+01, -1.0896980451e+01
5.8240000000e+09, -1.0862220000e-05, 4.9284990000e-05, -8.5939713854e+01, -1.0778646192e+01
5.8242000000e+09, 5.9776270000e-05, 1.7231710000e-05, -8.4122739657e+01, -1.2285709652e+01
5.8244000000e+09, 3.2073800000e-05, 3.9618770000e-05, -8.5852980735e+01, -1.1676117810e+01
5.8246000000e+09, 2.0135760000e-05, 5.0714920000e-05, -8.5261552397e+01, -1.1373524775e+01
5.8248000000e+09, 6.1786570000e-05, 2.3168910000e-05, -8.3610738108e+01, -1.2207614896e+01
5.8250000000e+09, 8.4695740000e-06, 3.5783430000e-05, -8.8689630682e+01, -1.1227987038e+01
5.8252000000e+09, 5.8315090000e-05, 7.0423050000e-06, -8.4621502182e+01, -1.2446189591e+01
5.8254000000e+09, 7.7004660000e-05, 2.3786180000e-05, -8.1873874115e+01, -1.2266775447e+01
5.8256000000e+09, 3.5644170000e-05, 4.3054050000e-05, -8.5052669998e+01, -1.1687093595e+01
5.8258000000e+09, 2.7197000000e-05, 8.5092940000e-05, -8.0979707009e+01, -1.1304928168e+01
5.8260000000e+09, 5.3025920000e-05, 9.8386710000e-05, -7.9033787013e+01, -1.1489897420e+01
5.8262000000e+09, 6.8523290000e-05, 2.1171860000e-05, -8.2887253039e+01, -1.2266701994e+01
5.8264000000e+09, 2.9444960000e-05, -3.8761350000e-06, -9.0545165979e+01, -1.2697258039e+01
5.8266000000e+09, 7.3631680000e-05, 2.1106290000e-05, -8.2315765260e+01, -1.2287208975e+01
5.8268000000e+09, 2.6785270000e-05, 3.0743980000e-05, -8.7792009930e+01, -1.1712268628e+01
5.8270000000e+09, 3.9119310000e-05, -2.6160770000e-07, -8.8151982061e+01, -1.2573057946e+01
5.8272000000e+09, 1.7840610000e-05, 1.4346530000e-05, -9.2805773151e+01, -1.1889104184e+01
5.8274000000e+09, 3.6159780000e-05, -2.9027030000e-05, -8.6675417124e+01, -1.3242782213e+01
5.8276000000e+09, 3.9232040000e-05, -3.6754020000e-05, -8.5391005119e+01, -1.3319168823e+01
5.8278000000e+09, 7.4808380000e-05, -2.0368270000e-05, -8.2210417020e+01, -1.2832199393e+01
5.8280000000e+09, 5.4095740000e-05, -2.3086680000e-05, -8.4610062644e+01, -1.2969743281e+01
5.8282000000e+09, 8.1600980000e-05, 1.3900730000e-05, -8.1641858002e+01, -1.2397640271e+01
5.8284000000e+09, 6.7779670000e-05, -2.1696360000e-05, -8.2954363530e+01, -1.2876165440e+01
5.8286000000e+09, 4.6727120000e-05, -5.0177220000e-06, -8.6558826810e+01, -1.2673344199e+01
5.8288000000e+09, 4.8713150000e-05, 5.4100890000e-06, -8.6193835975e+01, -1.2455763748e+01
5.8290000000e+09, 3.8116450000e-05, -2.4857670000e-06, -8.8359319687e+01, -1.2631493467e+01
5.8292000000e+09, 5.3484010000e-05, -2.6409570000e-05, -8.4487934809e+01, -1.3025033394e+01
5.8294000000e+09, 4.1377520000e-05, -2.1252270000e-05, -8.6647912850e+01, -1.3040853768e+01
5.8296000000e+09, 3.5057170000e-05, 1.2019970000e-05, -8.8621761275e+01, -1.2236063845e+01
5.8298000000e+09, 2.8705640000e-05, -5.7845950000e-05, -8.3798464799e+01, -1.3676529554e+01
5.8300000000e+09, 1.7580770000e-05, -4.4516910000e-05, -8.6400054794e+01, -1.3761044579e+01
5.8302000000e+09, -9.2112300000e-06, -4.2879030000e-05, -8.7159172987e+01, -1.4348770084e+01
5.8304000000e+09, -2.4769730000e-05, -5.4617770000e-05, -8.4441029909e+01, -1.4562936331e+01
5.8306000000e+09, 2.0866340000e-05, -5.6743560000e-05, -8.4370846077e+01, -1.3784784677e+01
5.8308000000e+09, -3.9615590000e-05, -5.4202940000e-05, -8.3460783631e+01, -1.4768315469e+01
5.8310000000e+09, 2.0998190000e-06, -7.3094950000e-05, -8.2718669967e+01, -1.4108447561e+01
5.8312000000e+09, -2.9242090000e-07, -5.7075140000e-05, -8.4870946292e+01, -1.4142290334e+01
5.8314000000e+09, -5.1371000000e-05, -6.2728290000e-05, -8.1821823233e+01, -1.4823353249e+01
5.8316000000e+09, -2.5693630000e-05, -6.3249520000e-05, -8.3315521679e+01, -1.4523029424e+01
5.8318000000e+09, -5.0997040000e-05, -2.1316610000e-05, -8.5149751454e+01, -1.5312039141e+01
5.8320000000e+09, -5.0397020000e-05, -5.2969510000e-05, -8.2720012170e+01, -1.4897683171e+01
5.8322000000e+09, -4.4429320000e-05, -4.0955260000e-05, -8.4375527448e+01, -1.4963229881e+01
5.8324000000e+09, -3.1463030000e-05, -2.0160000000e-05, -8.8550063772e+01, -1.5138116761e+01
5.8326000000e+09, -8.5314240000e-05, -3.9406320000e-05, -8.0539715457e+01, -1.5275260648e+01
5.8328000000e+09, -4.0603610000e-05, -5.7257810000e-05, -8.3074077461e+01, -1.4753998583e+01
5.8330000000e+09, -3.1243500000e-05, -6.0781040000e-05, -8.3306374497e+01, -1.4611978338e+01
5.8332000000e+09, -6.5252240000e-05, -1.5027190000e-05, -8.3483662367e+01, -1.5481615805e+01
5.8334000000e+09, -3.1777500000e-05, -3.7569790000e-05, -8.6159516443e+01, -1.4839232706e+01
5.8336000000e+09, -6.8328770000e-05, -2.0450690000e-05, -8.2935338630e+01, -1.5417150288e+01
5.8338000000e+09, -4.2877610000e-05, -6.5470940000e-05, -8.2128986276e+01, -1.4716986483e+01
5.8340000000e+09, -8.4986980000e-05, -2.0380360000e-05, -8.1170120534e+01, -1.5472602038e+01
5.8342000000e+09, -3.3707530000e-05, 5.5221670000e-06, -8.9330438147e+01, -1.5870346706e+01
5.8344000000e+09, -8.2966410000e-05, -1.1386710000e-05, -8.1540910613e+01, -1.5571570559e+01
5.8346000000e+09, -5.5471950000e-06, 2.9044300000e-06, -1.0406635435e+02, -1.6190300633e+01
5.8348000000e+09, -5.3533150000e-05, -1.0624790000e-05, -8.5259755220e+01, -1.5512038113e+01
5.8350000000e+09, -8.3867960000e-05, -4.0914320000e-06, -8.1517754922e+01, -1.5659217705e+01
5.8352000000e+09, -5.2070470000e-05, 2.3243520000e-05, -8.4879035439e+01, -1.6127807586e+01
5.8354000000e+09, -6.3690340000e-05, -1.3056630000e-05, -8.3739744309e+01, -1.5505763009e+01
5.8356000000e+09, -6.4923530000e-05, 8.6367240000e-06, -8.3675773567e+01, -1.5840215948e+01
5.8358000000e+09, -2.8685470000e-05, -2.1057790000e-05, -8.8974679515e+01, -1.5074720897e+01
5.8360000000e+09, -4.7218000000e-05, 1.6414610000e-05, -8.6022374029e+01, -1.6042529264e+01
5.8362000000e+09, -9.7682950000e-05, 6.3600370000e-05, -7.8668775183e+01, -1.6285104206e+01
5.8364000000e+09, -3.2935440000e-05, 4.4257840000e-05, -8.5166267496e+01, -1.6638998929e+01
5.8366000000e+09, -8.4733090000e-05, 1.3420810000e-05, -8.1331331209e+01, -1.5865047586e+01
5.8368000000e+09, -5.4461850000e-05, 2.6136910000e-05, -8.4377986243e+01, -1.6155411938e+01
5.8370000000e+09, -4.8677580000e-05, 7.7605850000e-05, -8.0761254815e+01, -1.6718550313e+01
5.8372000000e+09, -2.4070320000e-05, 5.7876380000e-05, -8.4057118181e+01, -1.6884628778e+01
5.8374000000e+09, -5.3657110000e-05, 4.6941710000e-05, -8.2939132483e+01, -1.6426706060e+01
5.8376000000e+09, -2.3050880000e-05, 4.5166460000e-05, -8.5898384374e+01, -1.6806863199e+01
5.8378000000e+09, -9.6701560000e-06, 3.0054730000e-05, -9.0013925317e+01, -1.6967468606e+01
5.8380000000e+09, -4.7352620000e-05, 2.7935840000e-05, -8.5196075722e+01, -1.6240962823e+01
5.8382000000e+09, 1.7369480000e-05, 5.8718190000e-05, -8.4260237843e+01, -1.7566368751e+01
5.8384000000e+09, 5.8185870000e-06, 6.2174130000e-05, -8.4089934814e+01, -1.7372073146e+01
5.8386000000e+09, 1.1987330000e-05, 3.6388600000e-05, -8.8333253378e+01, -1.7596988917e+01
5.8388000000e+09, -5.8077380000e-05, 5.4799490000e-05, -8.1954539958e+01, -1.6464330071e+01
5.8390000000e+09, -1.3921740000e-05, 6.4215990000e-05, -8.3647668273e+01, -1.7065267865e+01
5.8392000000e+09, -4.3545960000e-06, 5.8685570000e-05, -8.4605526964e+01, -1.7204693172e+01
5.8394000000e+09, -1.4637170000e-05, 1.9944760000e-05, -9.2132200537e+01, -1.6645651792e+01
5.8396000000e+09, 4.0427000000e-05, 7.5397180000e-05, -8.1355436790e+01, -1.7770936127e+01
5.8398000000e+09, 2.9145780000e-05, 6.6196030000e-05, -8.2813828291e+01, -1.7693513581e+01
5.8400000000e+09, 2.0367360000e-06, 9.1965170000e-05, -8.0725402828e+01, -1.7300902794e+01
5.8402000000e+09, 4.7275030000e-05, 4.0151160000e-05, -8.4148728340e+01, -1.8145462522e+01
5.8404000000e+09, 3.9039640000e-05, 4.4080970000e-05, -8.4600179235e+01, -1.8003581181e+01
5.8406000000e+09, 5.4122680000e-05, 6.2637450000e-05, -8.1641373531e+01, -1.7991361301e+01
5.8408000000e+09, 5.9997480000e-05, 3.2197360000e-05, -8.3338221380e+01, -1.8357023695e+01
5.8410000000e+09, 8.5832690000e-05, 4.4703700000e-05, -8.0284610807e+01, -1.8369388462e+01
5.8412000000e+09, 7.1823020000e-05, 1.0305790000e-05, -8.2786217923e+01, -1.8707040020e+01
5.8414000000e+09, 6.9849510000e-05, 2.8356590000e-05, -8.2454185044e+01, -1.8463916260e+01
5.8416000000e+09, 9.3000420000e-05, -3.9387190000e-06, -8.0622519013e+01, -1.8891882253e+01
5.8418000000e+09, 3.9133840000e-05, 1.4452550000e-05, -8.7593674863e+01, -1.8495782343e+01
5.8420000000e+09, 4.4794920000e-05, -1.8248830000e-05, -8.6308575234e+01, -1.9236413408e+01
5.8422000000e+09, 7.4919330000e-05, 3.8005660000e-06, -8.2496960486e+01, -1.8798870593e+01
5.8424000000e+09, 7.0975290000e-05, 6.9138310000e-07, -8.2977444401e+01, -1.8839815049e+01
5.8426000000e+09, 4.2395260000e-05, -6.6089780000e-05, -8.2100516263e+01, -1.9849989949e+01
5.8428000000e+09, 7.5538030000e-05, -2.3277370000e-06, -8.2432564848e+01, -1.8880361605e+01
5.8430000000e+09, 6.1135400000e-05, -1.5097510000e-05, -8.4017051187e+01, -1.9091663839e+01
